
T1804 000:415 SEGGER J-Link V4.80g Log File (0001ms, 0282ms total)
T1804 000:415 DLL Compiled: Feb 13 2014 20:50:02 (0001ms, 0282ms total)
T1804 000:415 Logging started @ 2015-03-04 10:58 (0001ms, 0282ms total)
T1804 000:416 JLINK_SetWarnOutHandler(...) (0000ms, 0282ms total)
T1804 000:416 JLINK_OpenEx(...)
Firmware: J-Link ARM V8 compiled Jul 17 2014 12:31:18
Hardware: V8.00
S/N: 17935099
Feature(s): RDI,FlashDL,FlashBP,JFlash  returns O.K. (0278ms, 0560ms total)
T1804 000:694 JLINK_SetErrorOutHandler(...) (0000ms, 0560ms total)
T1804 000:694 JLINK_ExecCommand("ProjectFile = "C:\ti\TivaWare_C_Series-2.1.0.12573\examples\boards\dk-tm4c129x\PLC-NetBridge\JLinkSettings.ini"", ...)  returns 0x00 (0001ms, 0561ms total)
T1804 000:696 JLINK_ExecCommand("Device = TM4C1294NCPDT", ...)Device "TM4C1294NCPDT" selected (1024 KB flash, 256 KB RAM).  returns 0x00 (0004ms, 0565ms total)
T1804 000:700 JLINK_ExecCommand("DisableConnectionTimeout", ...)  returns 0x01 (0000ms, 0565ms total)
T1804 000:700 JLINK_GetHardwareVersion()  returns 0x13880 (0000ms, 0565ms total)
T1804 000:700 JLINK_GetDLLVersion()  returns 48007 (0000ms, 0565ms total)
T1804 000:700 JLINK_GetFirmwareString(...) (0000ms, 0565ms total)
T1804 000:700 JLINK_GetDLLVersion()  returns 48007 (0000ms, 0565ms total)
T1804 000:701 JLINK_GetCompileDateTime() (0000ms, 0566ms total)
T1804 000:707 JLINK_GetFirmwareString(...) (0000ms, 0566ms total)
T1804 000:708 JLINK_GetHardwareVersion()  returns 0x13880 (0001ms, 0567ms total)
T1804 000:709 JLINK_TIF_Select(JLINKARM_TIF_JTAG)  returns 0x00 (0008ms, 0575ms total)
T1804 000:717 JLINK_SetSpeed(2000) (0001ms, 0576ms total)
T1804 000:718 JLINK_GetIdData(...) >0x2F8 JTAG>TotalIRLen = 4, IRPrint = 0x01 >0x30 JTAG> >0x210 JTAG> >0x70 JTAG> >0x40 JTAG> >0x40 JTAG> >0x40 JTAG> >0x48 JTAG> >0x78 JTAG> >0x40 JTAG> >0x30 JTAG> >0x40 JTAG> >0x40 JTAG> >0x30 JTAG> >0x40 JTAG> >0x48 JTAG>Found Cortex-M4 r0p1, Little endian. -- CPU_WriteMem(4 bytes @ 0xE0002000) -- CPU_ReadMem(4 bytes @ 0xE000EDF0) -- CPU_ReadMem(4 bytes @ 0xE0002000)FPUnit: 6 code (BP) slots and 2 literal slots -- CPU_ReadMem(4 bytes @ 0xE000EDFC)
 -- CPU_ReadMem(4 bytes @ 0xE0001000) -- CPU_WriteMem(4 bytes @ 0xE0001000) -- CPU_ReadMem(4 bytes @ 0xE00FF010)TPIU fitted. -- CPU_ReadMem(4 bytes @ 0xE00FF014)ETM fitted. -- CPU_ReadMem(4 bytes @ 0xE00FF018) -- CPU is running -- CPU_ReadMem(4 bytes @ 0x400FE0F0) ScanLen=4 NumDevices=1 aId[0]=0x4BA00477 aIrRead[0]=0 aScanLen[0]=0 aScanRead[0]=0 (0035ms, 0611ms total)
T1804 000:753 JLINK_JTAG_GetDeviceID(DeviceIndex = 0)  returns 0x4BA00477 (0000ms, 0611ms total)
T1804 000:753 JLINK_JTAG_GetDeviceInfo(DeviceIndex = 0)  returns 0x00 (0000ms, 0611ms total)
T1804 000:753 JLINK_GetDeviceFamily()  returns 14 (0000ms, 0611ms total)
T1804 000:753 JLINK_ReadMem (0xE00FFFF0, 0x0010 Bytes, ...) -- CPU is running -- CPU_ReadMem(16 bytes @ 0xE00FFFF0) -- Data:  0D 00 00 00 10 00 00 00 05 00 00 00 B1 00 00 00  returns 0x00 (0002ms, 0613ms total)
T1804 000:755 JLINK_ReadMem (0xE00FFFD0, 0x0020 Bytes, ...) -- CPU is running -- CPU_ReadMem(32 bytes @ 0xE00FFFD0) -- Data:  04 00 00 00 00 00 00 00 00 00 00 00 00 00 00 00 ...  returns 0x00 (0002ms, 0615ms total)
T1804 000:757 JLINK_ReadMem (0xE00FF000, 0x0018 Bytes, ...) -- CPU is running -- CPU_ReadMem(24 bytes @ 0xE00FF000) -- Data:  03 F0 F0 FF 03 20 F0 FF 03 30 F0 FF 03 10 F0 FF ...  returns 0x00 (0002ms, 0617ms total)
T1804 000:759 JLINK_ReadMemU32(0xE000ED00, 0x0001 Items, ...) -- CPU is running -- CPU_ReadMem(4 bytes @ 0xE000ED00) -- Data:  41 C2 0F 41  returns 0x01 (0001ms, 0618ms total)
T1804 000:760 JLINK_ReadMemU32(0xE000EF40, 0x0001 Items, ...) -- CPU is running -- CPU_ReadMem(4 bytes @ 0xE000EF40) -- Data:  21 00 11 10  returns 0x01 (0001ms, 0619ms total)
T1804 000:761 JLINK_ReadMemU32(0xE000EF44, 0x0001 Items, ...) -- CPU is running -- CPU_ReadMem(4 bytes @ 0xE000EF44) -- Data:  11 00 00 11  returns 0x01 (0001ms, 0620ms total)
T1804 000:762 JLINK_SetResetType(JLINKARM_RESET_TYPE_NORMAL)  returns JLINKARM_RESET_TYPE_NORMAL (0000ms, 0620ms total)
T1804 000:762 JLINK_Reset() -- CPU is running -- CPU_WriteMem(4 bytes @ 0xE000EDF0) -- CPU is running -- CPU_WriteMem(4 bytes @ 0xE000EDFC) -- CPU is running -- CPU_WriteMem(4 bytes @ 0xE000ED0C) -- CPU is running -- CPU_ReadMem(4 bytes @ 0xE000EDF0) -- CPU is running -- CPU_ReadMem(4 bytes @ 0xE000EDF0) -- CPU is running -- CPU_WriteMem(4 bytes @ 0xE000EDF0) -- CPU is running -- CPU_WriteMem(4 bytes @ 0xE000EDFC) -- CPU is running -- CPU_ReadMem(4 bytes @ 0xE000EDF0) >0x78 JTAG> >0x40 JTAG> >0x30 JTAG>
 >0x40 JTAG> >0x48 JTAG> >0x40 JTAG> -- CPU_WriteMem(4 bytes @ 0xE000EDFC) -- CPU_WriteMem(4 bytes @ 0xE0001028) -- CPU_WriteMem(4 bytes @ 0xE0001038) -- CPU_WriteMem(4 bytes @ 0xE0001048) -- CPU_WriteMem(4 bytes @ 0xE0001058) -- CPU_ReadMem(4 bytes @ 0x400FE0F0) -- CPU_WriteMem(4 bytes @ 0xE0002000) -- CPU_ReadMem(4 bytes @ 0xE000EDFC) -- CPU_ReadMem(4 bytes @ 0xE0001000) (0041ms, 0661ms total)
T1804 000:803 JLINK_ReadReg(R15 (PC))  returns 0x00000200 (0000ms, 0661ms total)
T1804 000:803 JLINK_ReadReg(XPSR)  returns 0x01000000 (0000ms, 0661ms total)
T1804 000:803 JLINK_Halt()  returns 0x00 (0000ms, 0661ms total)
T1804 000:803 JLINK_IsHalted()  returns TRUE (0000ms, 0661ms total)
T1804 000:803 JLINK_ReadMemU32(0xE000EDF0, 0x0001 Items, ...) -- CPU_ReadMem(4 bytes @ 0xE000EDF0) -- Data:  03 00 03 00  returns 0x01 (0002ms, 0663ms total)
T1804 000:805 JLINK_WriteU32(0xE000EDF0, 0xA05F0003) -- CPU_WriteMem(4 bytes @ 0xE000EDF0)  returns 0x00 (0001ms, 0664ms total)
T1804 000:806 JLINK_WriteU32(0xE000EDFC, 0x01000000) -- CPU_WriteMem(4 bytes @ 0xE000EDFC)  returns 0x00 (0001ms, 0665ms total)
T1804 000:808 JLINK_GetHWStatus(...)  returns 0x00 (0001ms, 0666ms total)
T1804 000:809 JLINK_GetNumBPUnits(Type = 0xFFFFFF00)  returns 0x06 (0000ms, 0666ms total)
T1804 000:809 JLINK_GetNumBPUnits(Type = 0xF0)  returns 0x2000 (0000ms, 0666ms total)
T1804 000:809 JLINK_GetNumWPUnits()  returns 0x04 (0000ms, 0666ms total)
T1804 000:810 JLINK_GetSpeed()  returns 0x7D0 (0000ms, 0666ms total)
T1804 000:811 JLINK_ReadMemU32(0xE000E004, 0x0001 Items, ...) -- CPU_ReadMem(4 bytes @ 0xE000E004) -- Data:  03 00 00 00  returns 0x01 (0002ms, 0668ms total)
T1804 000:813 JLINK_ReadMemU32(0xE000E004, 0x0001 Items, ...) -- CPU_ReadMem(4 bytes @ 0xE000E004) -- Data:  03 00 00 00  returns 0x01 (0001ms, 0669ms total)
T1804 000:814 JLINK_WriteMem(0xE0001000, 0x001C Bytes, ...) -- Data:  01 00 00 00 00 00 00 00 00 00 00 00 00 00 00 00 ... -- CPU_WriteMem(28 bytes @ 0xE0001000)  returns 0x1C (0002ms, 0671ms total)
T1804 000:816 JLINK_ReadMem (0xE0001000, 0x001C Bytes, ...) -- CPU_ReadMem(28 bytes @ 0xE0001000) -- Data:  01 00 00 40 00 00 00 00 00 00 00 00 00 00 00 00 ...  returns 0x00 (0002ms, 0673ms total)
T1804 000:818 JLINK_ReadReg(R15 (PC))  returns 0x00000200 (0000ms, 0673ms total)
T1804 000:818 JLINK_ReadReg(XPSR)  returns 0x01000000 (0000ms, 0673ms total)
T1804 000:940 JLINK_SetResetType(JLINKARM_RESET_TYPE_NORMAL)  returns JLINKARM_RESET_TYPE_NORMAL (0000ms, 0673ms total)
T1804 000:940 JLINK_Reset() -- CPU_WriteMem(4 bytes @ 0xE000EDF0) -- CPU_WriteMem(4 bytes @ 0xE000EDFC) -- CPU_WriteMem(4 bytes @ 0xE000ED0C) -- CPU_ReadMem(4 bytes @ 0xE000EDF0) -- CPU_ReadMem(4 bytes @ 0xE000EDF0) -- CPU_WriteMem(4 bytes @ 0xE000EDF0) -- CPU_WriteMem(4 bytes @ 0xE000EDFC) -- CPU is running -- CPU_ReadMem(4 bytes @ 0xE000EDF0) >0x78 JTAG> >0x40 JTAG> >0x30 JTAG> >0x40 JTAG> >0x48 JTAG> >0x40 JTAG> -- CPU_WriteMem(4 bytes @ 0xE000EDFC) -- CPU_WriteMem(4 bytes @ 0xE0001028)
 -- CPU_WriteMem(4 bytes @ 0xE0001038) -- CPU_WriteMem(4 bytes @ 0xE0001048) -- CPU_WriteMem(4 bytes @ 0xE0001058) -- CPU_ReadMem(4 bytes @ 0x400FE0F0) -- CPU_WriteMem(4 bytes @ 0xE0002000) -- CPU_ReadMem(4 bytes @ 0xE000EDFC) -- CPU_ReadMem(4 bytes @ 0xE0001000) (0040ms, 0713ms total)
T1804 000:981 JLINK_ReadReg(R15 (PC))  returns 0x00000200 (0000ms, 0713ms total)
T1804 000:981 JLINK_ReadReg(XPSR)  returns 0x01000000 (0000ms, 0713ms total)
T1804 000:981 JLINK_ReadMem (0x00000200, 0x003C Bytes, ...) -- CPU_ReadMem(64 bytes @ 0x00000200) -- Updating C cache (64 bytes @ 0x00000200) -- Read from C cache (60 bytes @ 0x00000200) -- Data:  4E F6 88 50 CE F2 00 00 01 68 41 F4 70 01 01 60 ...  returns 0x00 (0002ms, 0715ms total)
T1B34 002:160 JLINK_SetBPEx(Addr = 0x0000048E, Type = 0xFFFFFFF2)  returns 0x00000001 (0002ms, 0717ms total)
T1B34 002:162 JLINK_SetBPEx(Addr = 0x000005A6, Type = 0xFFFFFFF2)  returns 0x00000002 (0000ms, 0717ms total)
T1B34 002:162 JLINK_SetBPEx(Addr = 0x00000748, Type = 0xFFFFFFF2)  returns 0x00000003 (0000ms, 0717ms total)
T1B34 002:162 JLINK_SetBPEx(Addr = 0x00000744, Type = 0xFFFFFFF2)  returns 0x00000004 (0000ms, 0717ms total)
T1B34 002:162 JLINK_Go() -- CPU_WriteMem(4 bytes @ 0xE0002008) -- CPU_WriteMem(4 bytes @ 0xE000200C) -- CPU_WriteMem(4 bytes @ 0xE0002010) -- CPU_WriteMem(4 bytes @ 0xE0002014) -- CPU_WriteMem(4 bytes @ 0xE0002018) -- CPU_WriteMem(4 bytes @ 0xE000201C) -- CPU_WriteMem(4 bytes @ 0xE0001004) (0009ms, 0726ms total)
T1B34 002:271 JLINK_IsHalted()  returns TRUE (0005ms, 0731ms total)
T1B34 002:276 JLINK_Halt()  returns 0x00 (0000ms, 0726ms total)
T1B34 002:276 JLINK_IsHalted()  returns TRUE (0000ms, 0726ms total)
T1B34 002:276 JLINK_IsHalted()  returns TRUE (0000ms, 0726ms total)
T1B34 002:276 JLINK_IsHalted()  returns TRUE (0000ms, 0726ms total)
T1B34 002:276 JLINK_ReadReg(R15 (PC))  returns 0x0000048E (0000ms, 0726ms total)
T1B34 002:276 JLINK_ReadReg(XPSR)  returns 0x21000000 (0000ms, 0726ms total)
T1B34 002:276 JLINK_ClrBPEx(BPHandle = 0x00000001)  returns 0x00 (0000ms, 0726ms total)
T1B34 002:277 JLINK_ClrBPEx(BPHandle = 0x00000002)  returns 0x00 (0000ms, 0727ms total)
T1B34 002:277 JLINK_ClrBPEx(BPHandle = 0x00000003)  returns 0x00 (0000ms, 0727ms total)
T1B34 002:277 JLINK_ClrBPEx(BPHandle = 0x00000004)  returns 0x00 (0000ms, 0727ms total)
T1B34 002:277 JLINK_ReadMemU32(0xE000ED30, 0x0001 Items, ...) -- CPU_ReadMem(4 bytes @ 0xE000ED30) -- Data:  03 00 00 00  returns 0x01 (0001ms, 0728ms total)
T1B34 002:278 JLINK_ReadMemU32(0xE0001028, 0x0001 Items, ...) -- CPU_ReadMem(4 bytes @ 0xE0001028) -- Data:  00 00 00 00  returns 0x01 (0001ms, 0729ms total)
T1B34 002:279 JLINK_ReadMemU32(0xE0001038, 0x0001 Items, ...) -- CPU_ReadMem(4 bytes @ 0xE0001038) -- Data:  00 02 00 00  returns 0x01 (0001ms, 0730ms total)
T1B34 002:280 JLINK_ReadMemU32(0xE0001048, 0x0001 Items, ...) -- CPU_ReadMem(4 bytes @ 0xE0001048) -- Data:  00 00 00 00  returns 0x01 (0001ms, 0731ms total)
T1B34 002:281 JLINK_ReadMemU32(0xE0001058, 0x0001 Items, ...) -- CPU_ReadMem(4 bytes @ 0xE0001058) -- Data:  00 00 00 00  returns 0x01 (0001ms, 0732ms total)
T1B34 002:282 JLINK_ReadReg(R0)  returns 0x20025AE8 (0000ms, 0732ms total)
T1B34 002:282 JLINK_ReadReg(R1)  returns 0x20025AE8 (0000ms, 0732ms total)
T1B34 002:282 JLINK_ReadReg(R2)  returns 0x20025AE8 (0000ms, 0732ms total)
T1B34 002:282 JLINK_ReadReg(R3)  returns 0x20025AE8 (0000ms, 0732ms total)
T1B34 002:283 JLINK_ReadReg(R4)  returns 0x00000000 (0000ms, 0733ms total)
T1B34 002:283 JLINK_ReadReg(R5)  returns 0x20025A88 (0000ms, 0733ms total)
T1B34 002:283 JLINK_ReadReg(R6)  returns 0x00000000 (0000ms, 0733ms total)
T1B34 002:283 JLINK_ReadReg(R7)  returns 0x00000000 (0000ms, 0733ms total)
T1B34 002:283 JLINK_ReadReg(R8)  returns 0x00000000 (0000ms, 0733ms total)
T1B34 002:283 JLINK_ReadReg(R9)  returns 0x00000000 (0000ms, 0733ms total)
T1B34 002:283 JLINK_ReadReg(R10)  returns 0x00012744 (0000ms, 0733ms total)
T1B34 002:283 JLINK_ReadReg(R11)  returns 0x00000000 (0000ms, 0733ms total)
T1B34 002:283 JLINK_ReadReg(R12)  returns 0x20025AC8 (0000ms, 0733ms total)
T1B34 002:283 JLINK_ReadReg(R13 (SP))  returns 0x200262E8 (0000ms, 0733ms total)
T1B34 002:283 JLINK_ReadReg(R14)  returns 0x000002F5 (0000ms, 0733ms total)
T1B34 002:283 JLINK_ReadReg(R15 (PC))  returns 0x0000048E (0000ms, 0733ms total)
T1B34 002:283 JLINK_ReadReg(XPSR)  returns 0x21000000 (0000ms, 0733ms total)
T1B34 002:283 JLINK_ReadReg(MSP)  returns 0x200262E8 (0000ms, 0733ms total)
T1B34 002:283 JLINK_ReadReg(PSP)  returns 0x00000000 (0000ms, 0733ms total)
T1B34 002:283 JLINK_ReadReg(CFBP)  returns 0x04000000 (0000ms, 0733ms total)
T1B34 002:283 JLINK_ReadReg(FPSCR)  returns 0x03000000 (0011ms, 0744ms total)
T1B34 002:294 JLINK_ReadReg(FPS0)  returns 0x00000000 (0000ms, 0744ms total)
T1B34 002:294 JLINK_ReadReg(FPS1)  returns 0x00000000 (0000ms, 0744ms total)
T1B34 002:294 JLINK_ReadReg(FPS2)  returns 0x00000000 (0000ms, 0744ms total)
T1B34 002:294 JLINK_ReadReg(FPS3)  returns 0x00000000 (0000ms, 0744ms total)
T1B34 002:294 JLINK_ReadReg(FPS4)  returns 0x00000000 (0000ms, 0744ms total)
T1B34 002:295 JLINK_ReadReg(FPS5)  returns 0x00000000 (0000ms, 0745ms total)
T1B34 002:295 JLINK_ReadReg(FPS6)  returns 0x00000000 (0000ms, 0745ms total)
T1B34 002:295 JLINK_ReadReg(FPS7)  returns 0x00000000 (0000ms, 0745ms total)
T1B34 002:295 JLINK_ReadReg(FPS8)  returns 0x00000000 (0000ms, 0745ms total)
T1B34 002:295 JLINK_ReadReg(FPS9)  returns 0x00000000 (0000ms, 0745ms total)
T1B34 002:295 JLINK_ReadReg(FPS10)  returns 0x00000000 (0000ms, 0745ms total)
T1B34 002:295 JLINK_ReadReg(FPS11)  returns 0x00000000 (0000ms, 0745ms total)
T1B34 002:295 JLINK_ReadReg(FPS12)  returns 0x00000000 (0000ms, 0745ms total)
T1B34 002:295 JLINK_ReadReg(FPS13)  returns 0x00000000 (0000ms, 0745ms total)
T1B34 002:295 JLINK_ReadReg(FPS14)  returns 0x00000000 (0000ms, 0745ms total)
T1B34 002:295 JLINK_ReadReg(FPS15)  returns 0x00000000 (0000ms, 0745ms total)
T1B34 002:295 JLINK_ReadReg(FPS16)  returns 0x00000000 (0000ms, 0745ms total)
T1B34 002:295 JLINK_ReadReg(FPS17)  returns 0x00000000 (0000ms, 0745ms total)
T1B34 002:295 JLINK_ReadReg(FPS18)  returns 0x00000000 (0000ms, 0745ms total)
T1B34 002:295 JLINK_ReadReg(FPS19)  returns 0x00000000 (0000ms, 0745ms total)
T1B34 002:295 JLINK_ReadReg(FPS20)  returns 0x00000000 (0000ms, 0745ms total)
T1B34 002:295 JLINK_ReadReg(FPS31)  returns 0x00000000 (0000ms, 0745ms total)
T1B34 002:295 JLINK_ReadReg(FPS7)  returns 0x00000000 (0000ms, 0745ms total)
T1B34 002:295 JLINK_ReadReg(FPS8)  returns 0x00000000 (0000ms, 0745ms total)
T1B34 002:295 JLINK_ReadReg(FPS9)  returns 0x00000000 (0000ms, 0745ms total)
T1B34 002:295 JLINK_ReadReg(FPS10)  returns 0x00000000 (0000ms, 0745ms total)
T1B34 002:295 JLINK_ReadReg(FPS11)  returns 0x00000000 (0001ms, 0746ms total)
T1B34 002:296 JLINK_ReadReg(FPS12)  returns 0x00000000 (0000ms, 0746ms total)
T1B34 002:296 JLINK_ReadReg(FPS13)  returns 0x00000000 (0000ms, 0746ms total)
T1B34 002:296 JLINK_ReadReg(FPS14)  returns 0x00000000 (0000ms, 0746ms total)
T1B34 002:296 JLINK_ReadReg(FPS15)  returns 0x00000000 (0000ms, 0746ms total)
T1B34 002:296 JLINK_ReadReg(FPS16)  returns 0x00000000 (0000ms, 0746ms total)
T1804 002:296 JLINK_ReadMem (0x0000048C, 0x003C Bytes, ...) -- CPU_ReadMem(128 bytes @ 0x00000480) -- Updating C cache (128 bytes @ 0x00000480) -- Read from C cache (60 bytes @ 0x0000048C) -- Data:  10 BD 00 F0 03 F9 03 E0 00 F0 1E F8 00 F0 D9 F9 ...  returns 0x00 (0003ms, 0749ms total)
T1B34 004:230 JLINK_Step() -- Read from C cache (2 bytes @ 0x0000048E) -- CPU_ReadMem(4 bytes @ 0xE0001004) -- Read from C cache (2 bytes @ 0x00000490) -- Simulated  returns 0x00 (0004ms, 0753ms total)
T1B34 004:234 JLINK_ReadReg(R15 (PC))  returns 0x00000698 (0000ms, 0753ms total)
T1B34 004:234 JLINK_ReadReg(XPSR)  returns 0x21000000 (0000ms, 0753ms total)
T1B34 004:234 JLINK_ReadReg(R0)  returns 0x20025AE8 (0000ms, 0753ms total)
T1B34 004:234 JLINK_ReadReg(R1)  returns 0x20025AE8 (0000ms, 0753ms total)
T1B34 004:234 JLINK_ReadReg(R2)  returns 0x20025AE8 (0000ms, 0753ms total)
T1B34 004:234 JLINK_ReadReg(R3)  returns 0x20025AE8 (0000ms, 0753ms total)
T1B34 004:234 JLINK_ReadReg(R4)  returns 0x00000000 (0000ms, 0753ms total)
T1B34 004:234 JLINK_ReadReg(R5)  returns 0x20025A88 (0000ms, 0753ms total)
T1B34 004:234 JLINK_ReadReg(R6)  returns 0x00000000 (0000ms, 0753ms total)
T1B34 004:234 JLINK_ReadReg(R7)  returns 0x00000000 (0000ms, 0753ms total)
T1B34 004:234 JLINK_ReadReg(R8)  returns 0x00000000 (0001ms, 0754ms total)
T1B34 004:235 JLINK_ReadReg(R9)  returns 0x00000000 (0000ms, 0754ms total)
T1B34 004:235 JLINK_ReadReg(R10)  returns 0x00012744 (0000ms, 0754ms total)
T1B34 004:235 JLINK_ReadReg(R11)  returns 0x00000000 (0000ms, 0754ms total)
T1B34 004:235 JLINK_ReadReg(R12)  returns 0x20025AC8 (0000ms, 0754ms total)
T1B34 004:235 JLINK_ReadReg(R13 (SP))  returns 0x200262E8 (0000ms, 0754ms total)
T1B34 004:235 JLINK_ReadReg(R14)  returns 0x00000493 (0000ms, 0754ms total)
T1B34 004:235 JLINK_ReadReg(R15 (PC))  returns 0x00000698 (0000ms, 0754ms total)
T1B34 004:235 JLINK_ReadReg(XPSR)  returns 0x21000000 (0000ms, 0754ms total)
T1B34 004:235 JLINK_ReadReg(MSP)  returns 0x200262E8 (0000ms, 0754ms total)
T1B34 004:235 JLINK_ReadReg(PSP)  returns 0x00000000 (0000ms, 0754ms total)
T1B34 004:235 JLINK_ReadReg(CFBP)  returns 0x04000000 (0000ms, 0754ms total)
T1B34 004:235 JLINK_ReadReg(FPSCR)  returns 0x03000000 (0000ms, 0754ms total)
T1B34 004:235 JLINK_ReadReg(FPS0)  returns 0x00000000 (0000ms, 0754ms total)
T1B34 004:235 JLINK_ReadReg(FPS1)  returns 0x00000000 (0000ms, 0754ms total)
T1B34 004:235 JLINK_ReadReg(FPS2)  returns 0x00000000 (0000ms, 0754ms total)
T1B34 004:235 JLINK_ReadReg(FPS3)  returns 0x00000000 (0000ms, 0754ms total)
T1B34 004:235 JLINK_ReadReg(FPS4)  returns 0x00000000 (0000ms, 0754ms total)
T1B34 004:235 JLINK_ReadReg(FPS5)  returns 0x00000000 (0000ms, 0754ms total)
T1B34 004:235 JLINK_ReadReg(FPS6)  returns 0x00000000 (0000ms, 0754ms total)
T1B34 004:236 JLINK_ReadReg(FPS7)  returns 0x00000000 (0000ms, 0754ms total)
T1B34 004:236 JLINK_ReadReg(FPS8)  returns 0x00000000 (0000ms, 0754ms total)
T1B34 004:236 JLINK_ReadReg(FPS9)  returns 0x00000000 (0000ms, 0754ms total)
T1B34 004:236 JLINK_ReadReg(FPS10)  returns 0x00000000 (0000ms, 0754ms total)
T1B34 004:236 JLINK_ReadReg(FPS11)  returns 0x00000000 (0000ms, 0754ms total)
T1B34 004:236 JLINK_ReadReg(FPS12)  returns 0x00000000 (0000ms, 0754ms total)
T1B34 004:236 JLINK_ReadReg(FPS13)  returns 0x00000000 (0000ms, 0754ms total)
T1B34 004:236 JLINK_ReadReg(FPS14)  returns 0x00000000 (0000ms, 0754ms total)
T1B34 004:236 JLINK_ReadReg(FPS15)  returns 0x00000000 (0000ms, 0754ms total)
T1B34 004:236 JLINK_ReadReg(FPS16)  returns 0x00000000 (0000ms, 0754ms total)
T1B34 004:236 JLINK_ReadReg(FPS17)  returns 0x00000000 (0000ms, 0754ms total)
T1B34 004:236 JLINK_ReadReg(FPS18)  returns 0x00000000 (0000ms, 0754ms total)
T1B34 004:236 JLINK_ReadReg(FPS19)  returns 0x00000000 (0000ms, 0754ms total)
T1B34 004:236 JLINK_ReadReg(FPS20)  returns 0x00000000 (0000ms, 0754ms total)
T1B34 004:236 JLINK_ReadReg(FPS31)  returns 0x00000000 (0000ms, 0754ms total)
T1B34 004:236 JLINK_ReadReg(FPS7)  returns 0x00000000 (0000ms, 0754ms total)
T1B34 004:236 JLINK_ReadReg(FPS8)  returns 0x00000000 (0000ms, 0754ms total)
T1B34 004:236 JLINK_ReadReg(FPS9)  returns 0x00000000 (0000ms, 0754ms total)
T1B34 004:236 JLINK_ReadReg(FPS10)  returns 0x00000000 (0000ms, 0754ms total)
T1B34 004:236 JLINK_ReadReg(FPS11)  returns 0x00000000 (0000ms, 0754ms total)
T1B34 004:236 JLINK_ReadReg(FPS12)  returns 0x00000000 (0000ms, 0754ms total)
T1B34 004:236 JLINK_ReadReg(FPS13)  returns 0x00000000 (0001ms, 0755ms total)
T1B34 004:237 JLINK_ReadReg(FPS14)  returns 0x00000000 (0000ms, 0755ms total)
T1B34 004:237 JLINK_ReadReg(FPS15)  returns 0x00000000 (0000ms, 0755ms total)
T1B34 004:237 JLINK_ReadReg(FPS16)  returns 0x00000000 (0000ms, 0755ms total)
T1804 004:239 JLINK_ReadMem (0x00000598, 0x003C Bytes, ...) -- CPU_ReadMem(128 bytes @ 0x00000580) -- Updating C cache (128 bytes @ 0x00000580) -- Read from C cache (60 bytes @ 0x00000598) -- Data:  5A FE 0C F0 A1 F8 3D 48 00 78 FF F7 64 FF 35 48 ...  returns 0x00 (0003ms, 0758ms total)
T1804 004:242 JLINK_ReadMem (0x000005D4, 0x003C Bytes, ...) -- CPU_ReadMem(64 bytes @ 0x00000600) -- Updating C cache (64 bytes @ 0x00000600) -- Read from C cache (60 bytes @ 0x000005D4) -- Data:  4C FF 0C F0 8B F8 00 F0 FE FD 00 20 26 49 C1 F8 ...  returns 0x00 (0002ms, 0760ms total)
T1804 004:244 JLINK_ReadMem (0x00000610, 0x003C Bytes, ...) -- CPU_ReadMem(64 bytes @ 0x00000640) -- Updating C cache (64 bytes @ 0x00000640) -- Read from C cache (60 bytes @ 0x00000610) -- Data:  2E FF 1A 48 40 68 19 49 09 69 01 60 0C F0 68 F8 ...  returns 0x00 (0002ms, 0762ms total)
T1804 004:246 JLINK_ReadMem (0x0000064C, 0x003C Bytes, ...) -- CPU_ReadMem(64 bytes @ 0x00000680) -- Updating C cache (64 bytes @ 0x00000680) -- Read from C cache (60 bytes @ 0x0000064C) -- Data:  1E 21 B0 FB F1 F4 20 46 FF F7 6A FE 0E 48 00 78 ...  returns 0x00 (0002ms, 0764ms total)
T1804 004:248 JLINK_ReadMem (0x00000694, 0x003C Bytes, ...) -- CPU_ReadMem(64 bytes @ 0x000006C0) -- Updating C cache (64 bytes @ 0x000006C0) -- Read from C cache (60 bytes @ 0x00000694) -- Data:  38 00 00 20 70 B5 03 25 00 26 3C 49 3C 48 0C F0 ...  returns 0x00 (0002ms, 0766ms total)
T1B34 005:310 JLINK_Step() -- Read from C cache (2 bytes @ 0x00000698) -- CPU_WriteMem(16 bytes @ 0x200262D8) -- Simulated  returns 0x00 (0004ms, 0770ms total)
T1B34 005:314 JLINK_ReadReg(R15 (PC))  returns 0x0000069A (0000ms, 0770ms total)
T1B34 005:314 JLINK_ReadReg(XPSR)  returns 0x21000000 (0000ms, 0770ms total)
T1B34 005:314 JLINK_ReadReg(R0)  returns 0x20025AE8 (0000ms, 0770ms total)
T1B34 005:314 JLINK_ReadReg(R1)  returns 0x20025AE8 (0000ms, 0770ms total)
T1B34 005:314 JLINK_ReadReg(R2)  returns 0x20025AE8 (0000ms, 0770ms total)
T1B34 005:314 JLINK_ReadReg(R3)  returns 0x20025AE8 (0000ms, 0770ms total)
T1B34 005:314 JLINK_ReadReg(R4)  returns 0x00000000 (0000ms, 0770ms total)
T1B34 005:314 JLINK_ReadReg(R5)  returns 0x20025A88 (0000ms, 0770ms total)
T1B34 005:314 JLINK_ReadReg(R6)  returns 0x00000000 (0000ms, 0770ms total)
T1B34 005:314 JLINK_ReadReg(R7)  returns 0x00000000 (0000ms, 0770ms total)
T1B34 005:314 JLINK_ReadReg(R8)  returns 0x00000000 (0000ms, 0770ms total)
T1B34 005:314 JLINK_ReadReg(R9)  returns 0x00000000 (0000ms, 0770ms total)
T1B34 005:314 JLINK_ReadReg(R10)  returns 0x00012744 (0000ms, 0770ms total)
T1B34 005:314 JLINK_ReadReg(R11)  returns 0x00000000 (0000ms, 0770ms total)
T1B34 005:314 JLINK_ReadReg(R12)  returns 0x20025AC8 (0001ms, 0771ms total)
T1B34 005:315 JLINK_ReadReg(R13 (SP))  returns 0x200262D8 (0000ms, 0771ms total)
T1B34 005:315 JLINK_ReadReg(R14)  returns 0x00000493 (0000ms, 0771ms total)
T1B34 005:315 JLINK_ReadReg(R15 (PC))  returns 0x0000069A (0000ms, 0771ms total)
T1B34 005:315 JLINK_ReadReg(XPSR)  returns 0x21000000 (0000ms, 0771ms total)
T1B34 005:315 JLINK_ReadReg(MSP)  returns 0x200262D8 (0000ms, 0771ms total)
T1B34 005:315 JLINK_ReadReg(PSP)  returns 0x00000000 (0000ms, 0771ms total)
T1B34 005:315 JLINK_ReadReg(CFBP)  returns 0x04000000 (0000ms, 0771ms total)
T1B34 005:315 JLINK_ReadReg(FPSCR)  returns 0x03000000 (0000ms, 0771ms total)
T1B34 005:315 JLINK_ReadReg(FPS0)  returns 0x00000000 (0000ms, 0771ms total)
T1B34 005:315 JLINK_ReadReg(FPS1)  returns 0x00000000 (0000ms, 0771ms total)
T1B34 005:315 JLINK_ReadReg(FPS2)  returns 0x00000000 (0000ms, 0771ms total)
T1B34 005:315 JLINK_ReadReg(FPS3)  returns 0x00000000 (0000ms, 0771ms total)
T1B34 005:315 JLINK_ReadReg(FPS4)  returns 0x00000000 (0000ms, 0771ms total)
T1B34 005:315 JLINK_ReadReg(FPS5)  returns 0x00000000 (0000ms, 0771ms total)
T1B34 005:315 JLINK_ReadReg(FPS6)  returns 0x00000000 (0000ms, 0771ms total)
T1B34 005:315 JLINK_ReadReg(FPS7)  returns 0x00000000 (0000ms, 0771ms total)
T1B34 005:315 JLINK_ReadReg(FPS8)  returns 0x00000000 (0000ms, 0771ms total)
T1B34 005:315 JLINK_ReadReg(FPS9)  returns 0x00000000 (0000ms, 0771ms total)
T1B34 005:315 JLINK_ReadReg(FPS10)  returns 0x00000000 (0000ms, 0771ms total)
T1B34 005:315 JLINK_ReadReg(FPS11)  returns 0x00000000 (0000ms, 0771ms total)
T1B34 005:315 JLINK_ReadReg(FPS12)  returns 0x00000000 (0000ms, 0771ms total)
T1B34 005:315 JLINK_ReadReg(FPS13)  returns 0x00000000 (0001ms, 0772ms total)
T1B34 005:316 JLINK_ReadReg(FPS14)  returns 0x00000000 (0000ms, 0772ms total)
T1B34 005:316 JLINK_ReadReg(FPS15)  returns 0x00000000 (0000ms, 0772ms total)
T1B34 005:316 JLINK_ReadReg(FPS16)  returns 0x00000000 (0000ms, 0772ms total)
T1B34 005:316 JLINK_ReadReg(FPS17)  returns 0x00000000 (0000ms, 0772ms total)
T1B34 005:316 JLINK_ReadReg(FPS18)  returns 0x00000000 (0000ms, 0772ms total)
T1B34 005:316 JLINK_ReadReg(FPS19)  returns 0x00000000 (0000ms, 0772ms total)
T1B34 005:316 JLINK_ReadReg(FPS20)  returns 0x00000000 (0000ms, 0772ms total)
T1B34 005:316 JLINK_ReadReg(FPS31)  returns 0x00000000 (0000ms, 0772ms total)
T1B34 005:316 JLINK_ReadReg(FPS7)  returns 0x00000000 (0000ms, 0772ms total)
T1B34 005:316 JLINK_ReadReg(FPS8)  returns 0x00000000 (0000ms, 0772ms total)
T1B34 005:316 JLINK_ReadReg(FPS9)  returns 0x00000000 (0000ms, 0772ms total)
T1B34 005:316 JLINK_ReadReg(FPS10)  returns 0x00000000 (0000ms, 0772ms total)
T1B34 005:316 JLINK_ReadReg(FPS11)  returns 0x00000000 (0000ms, 0772ms total)
T1B34 005:316 JLINK_ReadReg(FPS12)  returns 0x00000000 (0000ms, 0772ms total)
T1B34 005:316 JLINK_ReadReg(FPS13)  returns 0x00000000 (0000ms, 0772ms total)
T1B34 005:316 JLINK_ReadReg(FPS14)  returns 0x00000000 (0000ms, 0772ms total)
T1B34 005:316 JLINK_ReadReg(FPS15)  returns 0x00000000 (0000ms, 0772ms total)
T1B34 005:316 JLINK_ReadReg(FPS16)  returns 0x00000000 (0000ms, 0772ms total)
T1B34 010:480 JLINK_SetBPEx(Addr = 0x000005A6, Type = 0xFFFFFFF2)  returns 0x00000005 (0001ms, 0773ms total)
T1B34 010:481 JLINK_SetBPEx(Addr = 0x00000748, Type = 0xFFFFFFF2)  returns 0x00000006 (0000ms, 0773ms total)
T1B34 010:481 JLINK_SetBPEx(Addr = 0x00000744, Type = 0xFFFFFFF2)  returns 0x00000007 (0000ms, 0773ms total)
T1B34 010:481 JLINK_SetBPEx(Addr = 0x00000740, Type = 0xFFFFFFF2)  returns 0x00000008 (0000ms, 0773ms total)
T1B34 010:481 JLINK_Go() -- CPU_WriteMem(4 bytes @ 0xE0002008) -- CPU_WriteMem(4 bytes @ 0xE000200C) -- CPU_WriteMem(4 bytes @ 0xE0002010) -- CPU_WriteMem(4 bytes @ 0xE0002014) -- CPU_WriteMem(4 bytes @ 0xE0001004) (0011ms, 0784ms total)
T1B34 010:592 JLINK_IsHalted()  returns TRUE (0006ms, 0790ms total)
T1B34 010:598 JLINK_Halt()  returns 0x00 (0000ms, 0784ms total)
T1B34 010:598 JLINK_IsHalted()  returns TRUE (0000ms, 0784ms total)
T1B34 010:598 JLINK_IsHalted()  returns TRUE (0000ms, 0784ms total)
T1B34 010:598 JLINK_IsHalted()  returns TRUE (0000ms, 0784ms total)
T1B34 010:598 JLINK_ReadReg(R15 (PC))  returns 0x00000740 (0000ms, 0784ms total)
T1B34 010:598 JLINK_ReadReg(XPSR)  returns 0x21000000 (0000ms, 0784ms total)
T1B34 010:598 JLINK_ClrBPEx(BPHandle = 0x00000005)  returns 0x00 (0000ms, 0784ms total)
T1B34 010:598 JLINK_ClrBPEx(BPHandle = 0x00000006)  returns 0x00 (0000ms, 0784ms total)
T1B34 010:598 JLINK_ClrBPEx(BPHandle = 0x00000007)  returns 0x00 (0000ms, 0784ms total)
T1B34 010:598 JLINK_ClrBPEx(BPHandle = 0x00000008)  returns 0x00 (0000ms, 0784ms total)
T1B34 010:598 JLINK_ReadMemU32(0xE000ED30, 0x0001 Items, ...) -- CPU_ReadMem(4 bytes @ 0xE000ED30) -- Data:  03 00 00 00  returns 0x01 (0002ms, 0786ms total)
T1B34 010:600 JLINK_ReadMemU32(0xE0001028, 0x0001 Items, ...) -- CPU_ReadMem(4 bytes @ 0xE0001028) -- Data:  00 00 00 00  returns 0x01 (0001ms, 0787ms total)
T1B34 010:601 JLINK_ReadMemU32(0xE0001038, 0x0001 Items, ...) -- CPU_ReadMem(4 bytes @ 0xE0001038) -- Data:  00 02 00 00  returns 0x01 (0001ms, 0788ms total)
T1B34 010:602 JLINK_ReadMemU32(0xE0001048, 0x0001 Items, ...) -- CPU_ReadMem(4 bytes @ 0xE0001048) -- Data:  00 00 00 00  returns 0x01 (0001ms, 0789ms total)
T1B34 010:603 JLINK_ReadMemU32(0xE0001058, 0x0001 Items, ...) -- CPU_ReadMem(4 bytes @ 0xE0001058) -- Data:  00 00 00 00  returns 0x01 (0001ms, 0790ms total)
T1B34 010:604 JLINK_ReadReg(R0)  returns 0x40000000 (0000ms, 0790ms total)
T1B34 010:604 JLINK_ReadReg(R1)  returns 0x00000001 (0000ms, 0790ms total)
T1B34 010:604 JLINK_ReadReg(R2)  returns 0x00000000 (0000ms, 0790ms total)
T1B34 010:604 JLINK_ReadReg(R3)  returns 0x00400000 (0000ms, 0790ms total)
T1B34 010:604 JLINK_ReadReg(R4)  returns 0x00000000 (0000ms, 0790ms total)
T1B34 010:604 JLINK_ReadReg(R5)  returns 0x00000003 (0000ms, 0790ms total)
T1B34 010:605 JLINK_ReadReg(R6)  returns 0x00000000 (0000ms, 0791ms total)
T1B34 010:605 JLINK_ReadReg(R7)  returns 0x00000000 (0000ms, 0791ms total)
T1B34 010:605 JLINK_ReadReg(R8)  returns 0x00000000 (0000ms, 0791ms total)
T1B34 010:605 JLINK_ReadReg(R9)  returns 0x00000000 (0000ms, 0791ms total)
T1B34 010:605 JLINK_ReadReg(R10)  returns 0x00012744 (0000ms, 0791ms total)
T1B34 010:605 JLINK_ReadReg(R11)  returns 0x00000000 (0000ms, 0791ms total)
T1B34 010:605 JLINK_ReadReg(R12)  returns 0x00000000 (0000ms, 0791ms total)
T1B34 010:605 JLINK_ReadReg(R13 (SP))  returns 0x200262D8 (0000ms, 0791ms total)
T1B34 010:605 JLINK_ReadReg(R14)  returns 0x00003103 (0000ms, 0791ms total)
T1B34 010:605 JLINK_ReadReg(R15 (PC))  returns 0x00000740 (0000ms, 0791ms total)
T1B34 010:605 JLINK_ReadReg(XPSR)  returns 0x21000000 (0000ms, 0791ms total)
T1B34 010:605 JLINK_ReadReg(MSP)  returns 0x200262D8 (0000ms, 0791ms total)
T1B34 010:605 JLINK_ReadReg(PSP)  returns 0x00000000 (0000ms, 0791ms total)
T1B34 010:605 JLINK_ReadReg(CFBP)  returns 0x04000001 (0000ms, 0791ms total)
T1B34 010:605 JLINK_ReadReg(FPSCR)  returns 0x03000000 (0008ms, 0799ms total)
T1B34 010:613 JLINK_ReadReg(FPS0)  returns 0x00000000 (0000ms, 0799ms total)
T1B34 010:613 JLINK_ReadReg(FPS1)  returns 0x00000000 (0000ms, 0799ms total)
T1B34 010:613 JLINK_ReadReg(FPS2)  returns 0x00000000 (0000ms, 0799ms total)
T1B34 010:613 JLINK_ReadReg(FPS3)  returns 0x00000000 (0000ms, 0799ms total)
T1B34 010:613 JLINK_ReadReg(FPS4)  returns 0x00000000 (0000ms, 0799ms total)
T1B34 010:613 JLINK_ReadReg(FPS5)  returns 0x00000000 (0000ms, 0799ms total)
T1B34 010:613 JLINK_ReadReg(FPS6)  returns 0x00000000 (0000ms, 0799ms total)
T1B34 010:613 JLINK_ReadReg(FPS7)  returns 0x00000000 (0000ms, 0799ms total)
T1B34 010:613 JLINK_ReadReg(FPS8)  returns 0x00000000 (0000ms, 0799ms total)
T1B34 010:613 JLINK_ReadReg(FPS9)  returns 0x00000000 (0000ms, 0799ms total)
T1B34 010:613 JLINK_ReadReg(FPS10)  returns 0x00000000 (0000ms, 0799ms total)
T1B34 010:614 JLINK_ReadReg(FPS11)  returns 0x00000000 (0000ms, 0800ms total)
T1B34 010:614 JLINK_ReadReg(FPS12)  returns 0x00000000 (0000ms, 0800ms total)
T1B34 010:614 JLINK_ReadReg(FPS13)  returns 0x00000000 (0000ms, 0800ms total)
T1B34 010:614 JLINK_ReadReg(FPS14)  returns 0x00000000 (0000ms, 0800ms total)
T1B34 010:614 JLINK_ReadReg(FPS15)  returns 0x00000000 (0000ms, 0800ms total)
T1B34 010:614 JLINK_ReadReg(FPS16)  returns 0x00000000 (0000ms, 0800ms total)
T1B34 010:614 JLINK_ReadReg(FPS17)  returns 0x00000000 (0000ms, 0800ms total)
T1B34 010:614 JLINK_ReadReg(FPS18)  returns 0x00000000 (0000ms, 0800ms total)
T1B34 010:614 JLINK_ReadReg(FPS19)  returns 0x00000000 (0000ms, 0800ms total)
T1B34 010:614 JLINK_ReadReg(FPS20)  returns 0x00000000 (0000ms, 0800ms total)
T1B34 010:614 JLINK_ReadReg(FPS31)  returns 0x00000000 (0000ms, 0800ms total)
T1B34 010:614 JLINK_ReadReg(FPS7)  returns 0x00000000 (0000ms, 0800ms total)
T1B34 010:614 JLINK_ReadReg(FPS8)  returns 0x00000000 (0000ms, 0800ms total)
T1B34 010:614 JLINK_ReadReg(FPS9)  returns 0x00000000 (0000ms, 0800ms total)
T1B34 010:614 JLINK_ReadReg(FPS10)  returns 0x00000000 (0000ms, 0800ms total)
T1B34 010:614 JLINK_ReadReg(FPS11)  returns 0x00000000 (0000ms, 0800ms total)
T1B34 010:614 JLINK_ReadReg(FPS12)  returns 0x00000000 (0000ms, 0800ms total)
T1B34 010:614 JLINK_ReadReg(FPS13)  returns 0x00000000 (0000ms, 0800ms total)
T1B34 010:614 JLINK_ReadReg(FPS14)  returns 0x00000000 (0000ms, 0800ms total)
T1B34 010:614 JLINK_ReadReg(FPS15)  returns 0x00000000 (0000ms, 0800ms total)
T1B34 010:614 JLINK_ReadReg(FPS16)  returns 0x00000000 (0000ms, 0800ms total)
T1804 010:615 JLINK_ReadMem (0x00000738, 0x003C Bytes, ...) -- CPU_ReadMem(128 bytes @ 0x00000700) -- Updating C cache (128 bytes @ 0x00000700) -- Read from C cache (60 bytes @ 0x00000738) -- Data:  4F F4 FA 60 02 F0 BE FC 02 F0 9C FB 02 F0 EC FC ...  returns 0x00 (0002ms, 0802ms total)
T1B34 013:554 JLINK_Step() -- Read from C cache (2 bytes @ 0x00000740) -- CPU_ReadMem(4 bytes @ 0xE0001004) -- Read from C cache (2 bytes @ 0x00000742) -- Simulated  returns 0x00 (0004ms, 0806ms total)
T1B34 013:558 JLINK_ReadReg(R15 (PC))  returns 0x00002E7C (0000ms, 0806ms total)
T1B34 013:558 JLINK_ReadReg(XPSR)  returns 0x21000000 (0000ms, 0806ms total)
T1B34 013:558 JLINK_ReadReg(R0)  returns 0x40000000 (0000ms, 0806ms total)
T1B34 013:558 JLINK_ReadReg(R1)  returns 0x00000001 (0000ms, 0806ms total)
T1B34 013:558 JLINK_ReadReg(R2)  returns 0x00000000 (0000ms, 0806ms total)
T1B34 013:558 JLINK_ReadReg(R3)  returns 0x00400000 (0000ms, 0806ms total)
T1B34 013:558 JLINK_ReadReg(R4)  returns 0x00000000 (0000ms, 0806ms total)
T1B34 013:558 JLINK_ReadReg(R5)  returns 0x00000003 (0001ms, 0807ms total)
T1B34 013:559 JLINK_ReadReg(R6)  returns 0x00000000 (0000ms, 0807ms total)
T1B34 013:559 JLINK_ReadReg(R7)  returns 0x00000000 (0000ms, 0807ms total)
T1B34 013:559 JLINK_ReadReg(R8)  returns 0x00000000 (0000ms, 0807ms total)
T1B34 013:559 JLINK_ReadReg(R9)  returns 0x00000000 (0000ms, 0807ms total)
T1B34 013:559 JLINK_ReadReg(R10)  returns 0x00012744 (0000ms, 0807ms total)
T1B34 013:559 JLINK_ReadReg(R11)  returns 0x00000000 (0000ms, 0807ms total)
T1B34 013:559 JLINK_ReadReg(R12)  returns 0x00000000 (0000ms, 0807ms total)
T1B34 013:559 JLINK_ReadReg(R13 (SP))  returns 0x200262D8 (0000ms, 0807ms total)
T1B34 013:559 JLINK_ReadReg(R14)  returns 0x00000745 (0000ms, 0807ms total)
T1B34 013:559 JLINK_ReadReg(R15 (PC))  returns 0x00002E7C (0000ms, 0807ms total)
T1B34 013:559 JLINK_ReadReg(XPSR)  returns 0x21000000 (0000ms, 0807ms total)
T1B34 013:559 JLINK_ReadReg(MSP)  returns 0x200262D8 (0000ms, 0807ms total)
T1B34 013:559 JLINK_ReadReg(PSP)  returns 0x00000000 (0000ms, 0807ms total)
T1B34 013:559 JLINK_ReadReg(CFBP)  returns 0x04000001 (0000ms, 0807ms total)
T1B34 013:559 JLINK_ReadReg(FPSCR)  returns 0x03000000 (0000ms, 0807ms total)
T1B34 013:559 JLINK_ReadReg(FPS0)  returns 0x00000000 (0000ms, 0807ms total)
T1B34 013:559 JLINK_ReadReg(FPS1)  returns 0x00000000 (0001ms, 0808ms total)
T1B34 013:560 JLINK_ReadReg(FPS2)  returns 0x00000000 (0000ms, 0808ms total)
T1B34 013:560 JLINK_ReadReg(FPS3)  returns 0x00000000 (0000ms, 0808ms total)
T1B34 013:560 JLINK_ReadReg(FPS4)  returns 0x00000000 (0000ms, 0808ms total)
T1B34 013:560 JLINK_ReadReg(FPS5)  returns 0x00000000 (0000ms, 0808ms total)
T1B34 013:560 JLINK_ReadReg(FPS6)  returns 0x00000000 (0000ms, 0808ms total)
T1B34 013:560 JLINK_ReadReg(FPS7)  returns 0x00000000 (0000ms, 0808ms total)
T1B34 013:560 JLINK_ReadReg(FPS8)  returns 0x00000000 (0000ms, 0808ms total)
T1B34 013:560 JLINK_ReadReg(FPS9)  returns 0x00000000 (0000ms, 0808ms total)
T1B34 013:560 JLINK_ReadReg(FPS10)  returns 0x00000000 (0000ms, 0808ms total)
T1B34 013:560 JLINK_ReadReg(FPS11)  returns 0x00000000 (0000ms, 0808ms total)
T1B34 013:560 JLINK_ReadReg(FPS12)  returns 0x00000000 (0000ms, 0808ms total)
T1B34 013:560 JLINK_ReadReg(FPS13)  returns 0x00000000 (0000ms, 0808ms total)
T1B34 013:560 JLINK_ReadReg(FPS14)  returns 0x00000000 (0000ms, 0808ms total)
T1B34 013:560 JLINK_ReadReg(FPS15)  returns 0x00000000 (0000ms, 0808ms total)
T1B34 013:560 JLINK_ReadReg(FPS16)  returns 0x00000000 (0000ms, 0808ms total)
T1B34 013:560 JLINK_ReadReg(FPS17)  returns 0x00000000 (0000ms, 0808ms total)
T1B34 013:560 JLINK_ReadReg(FPS18)  returns 0x00000000 (0000ms, 0808ms total)
T1B34 013:560 JLINK_ReadReg(FPS19)  returns 0x00000000 (0000ms, 0808ms total)
T1B34 013:560 JLINK_ReadReg(FPS20)  returns 0x00000000 (0000ms, 0808ms total)
T1B34 013:561 JLINK_ReadReg(FPS31)  returns 0x00000000 (0000ms, 0808ms total)
T1B34 013:561 JLINK_ReadReg(FPS7)  returns 0x00000000 (0000ms, 0808ms total)
T1B34 013:561 JLINK_ReadReg(FPS8)  returns 0x00000000 (0000ms, 0808ms total)
T1B34 013:561 JLINK_ReadReg(FPS9)  returns 0x00000000 (0000ms, 0808ms total)
T1B34 013:561 JLINK_ReadReg(FPS10)  returns 0x00000000 (0000ms, 0808ms total)
T1B34 013:561 JLINK_ReadReg(FPS11)  returns 0x00000000 (0000ms, 0808ms total)
T1B34 013:561 JLINK_ReadReg(FPS12)  returns 0x00000000 (0000ms, 0808ms total)
T1B34 013:561 JLINK_ReadReg(FPS13)  returns 0x00000000 (0000ms, 0808ms total)
T1B34 013:561 JLINK_ReadReg(FPS14)  returns 0x00000000 (0000ms, 0808ms total)
T1B34 013:561 JLINK_ReadReg(FPS15)  returns 0x00000000 (0000ms, 0808ms total)
T1B34 013:561 JLINK_ReadReg(FPS16)  returns 0x00000000 (0000ms, 0808ms total)
T1804 013:564 JLINK_ReadMem (0x00002E7A, 0x0002 Bytes, ...) -- CPU_ReadMem(64 bytes @ 0x00002E40) -- Updating C cache (64 bytes @ 0x00002E40) -- Read from C cache (2 bytes @ 0x00002E7A) -- Data:  10 BD  returns 0x00 (0002ms, 0810ms total)
T1804 013:566 JLINK_ReadMem (0x00002E7C, 0x003C Bytes, ...) -- CPU_ReadMem(64 bytes @ 0x00002E80) -- Updating C cache (64 bytes @ 0x00002E80) -- Read from C cache (60 bytes @ 0x00002E7C) -- Data:  10 B5 40 23 3E 22 6A 49 18 31 00 20 08 F0 40 FA ...  returns 0x00 (0002ms, 0812ms total)
T1B34 014:496 JLINK_Step() -- Read from C cache (2 bytes @ 0x00002E7C) -- CPU_WriteMem(8 bytes @ 0x200262D0) -- Simulated  returns 0x00 (0002ms, 0814ms total)
T1B34 014:498 JLINK_ReadReg(R15 (PC))  returns 0x00002E7E (0000ms, 0814ms total)
T1B34 014:498 JLINK_ReadReg(XPSR)  returns 0x21000000 (0000ms, 0814ms total)
T1B34 014:498 JLINK_ReadReg(R0)  returns 0x40000000 (0001ms, 0815ms total)
T1B34 014:499 JLINK_ReadReg(R1)  returns 0x00000001 (0000ms, 0815ms total)
T1B34 014:499 JLINK_ReadReg(R2)  returns 0x00000000 (0000ms, 0815ms total)
T1B34 014:499 JLINK_ReadReg(R3)  returns 0x00400000 (0000ms, 0815ms total)
T1B34 014:499 JLINK_ReadReg(R4)  returns 0x00000000 (0000ms, 0815ms total)
T1B34 014:499 JLINK_ReadReg(R5)  returns 0x00000003 (0000ms, 0815ms total)
T1B34 014:499 JLINK_ReadReg(R6)  returns 0x00000000 (0000ms, 0815ms total)
T1B34 014:499 JLINK_ReadReg(R7)  returns 0x00000000 (0000ms, 0815ms total)
T1B34 014:499 JLINK_ReadReg(R8)  returns 0x00000000 (0000ms, 0815ms total)
T1B34 014:499 JLINK_ReadReg(R9)  returns 0x00000000 (0000ms, 0815ms total)
T1B34 014:499 JLINK_ReadReg(R10)  returns 0x00012744 (0000ms, 0815ms total)
T1B34 014:499 JLINK_ReadReg(R11)  returns 0x00000000 (0000ms, 0815ms total)
T1B34 014:499 JLINK_ReadReg(R12)  returns 0x00000000 (0000ms, 0815ms total)
T1B34 014:499 JLINK_ReadReg(R13 (SP))  returns 0x200262D0 (0000ms, 0815ms total)
T1B34 014:499 JLINK_ReadReg(R14)  returns 0x00000745 (0000ms, 0815ms total)
T1B34 014:499 JLINK_ReadReg(R15 (PC))  returns 0x00002E7E (0000ms, 0815ms total)
T1B34 014:499 JLINK_ReadReg(XPSR)  returns 0x21000000 (0000ms, 0815ms total)
T1B34 014:499 JLINK_ReadReg(MSP)  returns 0x200262D0 (0000ms, 0815ms total)
T1B34 014:499 JLINK_ReadReg(PSP)  returns 0x00000000 (0000ms, 0815ms total)
T1B34 014:499 JLINK_ReadReg(CFBP)  returns 0x04000001 (0000ms, 0815ms total)
T1B34 014:499 JLINK_ReadReg(FPSCR)  returns 0x03000000 (0000ms, 0815ms total)
T1B34 014:499 JLINK_ReadReg(FPS0)  returns 0x00000000 (0001ms, 0816ms total)
T1B34 014:500 JLINK_ReadReg(FPS1)  returns 0x00000000 (0000ms, 0816ms total)
T1B34 014:500 JLINK_ReadReg(FPS2)  returns 0x00000000 (0000ms, 0816ms total)
T1B34 014:500 JLINK_ReadReg(FPS3)  returns 0x00000000 (0000ms, 0816ms total)
T1B34 014:500 JLINK_ReadReg(FPS4)  returns 0x00000000 (0000ms, 0816ms total)
T1B34 014:500 JLINK_ReadReg(FPS5)  returns 0x00000000 (0000ms, 0816ms total)
T1B34 014:500 JLINK_ReadReg(FPS6)  returns 0x00000000 (0000ms, 0816ms total)
T1B34 014:500 JLINK_ReadReg(FPS7)  returns 0x00000000 (0000ms, 0816ms total)
T1B34 014:500 JLINK_ReadReg(FPS8)  returns 0x00000000 (0000ms, 0816ms total)
T1B34 014:500 JLINK_ReadReg(FPS9)  returns 0x00000000 (0000ms, 0816ms total)
T1B34 014:500 JLINK_ReadReg(FPS10)  returns 0x00000000 (0000ms, 0816ms total)
T1B34 014:500 JLINK_ReadReg(FPS11)  returns 0x00000000 (0000ms, 0816ms total)
T1B34 014:500 JLINK_ReadReg(FPS12)  returns 0x00000000 (0000ms, 0816ms total)
T1B34 014:500 JLINK_ReadReg(FPS13)  returns 0x00000000 (0000ms, 0816ms total)
T1B34 014:500 JLINK_ReadReg(FPS14)  returns 0x00000000 (0000ms, 0816ms total)
T1B34 014:500 JLINK_ReadReg(FPS15)  returns 0x00000000 (0000ms, 0816ms total)
T1B34 014:500 JLINK_ReadReg(FPS16)  returns 0x00000000 (0000ms, 0816ms total)
T1B34 014:500 JLINK_ReadReg(FPS17)  returns 0x00000000 (0000ms, 0816ms total)
T1B34 014:500 JLINK_ReadReg(FPS18)  returns 0x00000000 (0000ms, 0816ms total)
T1B34 014:500 JLINK_ReadReg(FPS19)  returns 0x00000000 (0000ms, 0816ms total)
T1B34 014:500 JLINK_ReadReg(FPS20)  returns 0x00000000 (0001ms, 0817ms total)
T1B34 014:501 JLINK_ReadReg(FPS31)  returns 0x00000000 (0000ms, 0817ms total)
T1B34 014:501 JLINK_ReadReg(FPS7)  returns 0x00000000 (0000ms, 0817ms total)
T1B34 014:501 JLINK_ReadReg(FPS8)  returns 0x00000000 (0000ms, 0817ms total)
T1B34 014:501 JLINK_ReadReg(FPS9)  returns 0x00000000 (0000ms, 0817ms total)
T1B34 014:501 JLINK_ReadReg(FPS10)  returns 0x00000000 (0000ms, 0817ms total)
T1B34 014:501 JLINK_ReadReg(FPS11)  returns 0x00000000 (0000ms, 0817ms total)
T1B34 014:501 JLINK_ReadReg(FPS12)  returns 0x00000000 (0000ms, 0817ms total)
T1B34 014:501 JLINK_ReadReg(FPS13)  returns 0x00000000 (0000ms, 0817ms total)
T1B34 014:501 JLINK_ReadReg(FPS14)  returns 0x00000000 (0000ms, 0817ms total)
T1B34 014:501 JLINK_ReadReg(FPS15)  returns 0x00000000 (0000ms, 0817ms total)
T1B34 014:501 JLINK_ReadReg(FPS16)  returns 0x00000000 (0000ms, 0817ms total)
T1804 015:723 JLINK_ReadMem (0x20000038, 0x0001 Bytes, ...) -- CPU_ReadMem(64 bytes @ 0x20000000) -- Updating C cache (64 bytes @ 0x20000000) -- Read from C cache (1 bytes @ 0x20000038) -- Data:  00  returns 0x00 (0004ms, 0821ms total)
T1B34 016:605 JLINK_ReadMem (0x00002E7E, 0x0002 Bytes, ...) -- Read from C cache (2 bytes @ 0x00002E7E) -- Data:  40 23  returns 0x00 (0001ms, 0822ms total)
T1B34 016:606 JLINK_ReadMem (0x00002E80, 0x003C Bytes, ...) -- Read from C cache (60 bytes @ 0x00002E80) -- Data:  3E 22 6A 49 18 31 00 20 08 F0 40 FA 6A 48 00 78 ...  returns 0x00 (0000ms, 0822ms total)
T1B34 016:606 JLINK_Step() -- Read from C cache (2 bytes @ 0x00002E7E) -- Simulated  returns 0x00 (0001ms, 0823ms total)
T1B34 016:607 JLINK_ReadReg(R15 (PC))  returns 0x00002E80 (0000ms, 0823ms total)
T1B34 016:607 JLINK_ReadReg(XPSR)  returns 0x21000000 (0000ms, 0823ms total)
T1B34 016:607 JLINK_Step() -- Read from C cache (2 bytes @ 0x00002E80) -- Simulated  returns 0x00 (0000ms, 0823ms total)
T1B34 016:607 JLINK_ReadReg(R15 (PC))  returns 0x00002E82 (0000ms, 0823ms total)
T1B34 016:607 JLINK_ReadReg(XPSR)  returns 0x21000000 (0000ms, 0823ms total)
T1B34 016:607 JLINK_Step() -- Read from C cache (2 bytes @ 0x00002E82) -- CPU_ReadMem(64 bytes @ 0x00003000) -- Updating C cache (64 bytes @ 0x00003000) -- Read from C cache (4 bytes @ 0x0000302C) -- Simulated  returns 0x00 (0002ms, 0825ms total)
T1B34 016:609 JLINK_ReadReg(R15 (PC))  returns 0x00002E84 (0000ms, 0825ms total)
T1B34 016:609 JLINK_ReadReg(XPSR)  returns 0x21000000 (0000ms, 0825ms total)
T1B34 016:609 JLINK_Step() -- Read from C cache (2 bytes @ 0x00002E84) -- Simulated  returns 0x00 (0000ms, 0825ms total)
T1B34 016:609 JLINK_ReadReg(R15 (PC))  returns 0x00002E86 (0000ms, 0825ms total)
T1B34 016:609 JLINK_ReadReg(XPSR)  returns 0x01000000 (0000ms, 0825ms total)
T1B34 016:609 JLINK_Step() -- Read from C cache (2 bytes @ 0x00002E86) -- Simulated  returns 0x00 (0000ms, 0825ms total)
T1B34 016:609 JLINK_ReadReg(R15 (PC))  returns 0x00002E88 (0001ms, 0826ms total)
T1B34 016:610 JLINK_ReadReg(XPSR)  returns 0x41000000 (0000ms, 0826ms total)
T1B34 016:610 JLINK_SetBPEx(Addr = 0x00002E8C, Type = 0xFFFFFFF2)  returns 0x00000009 (0000ms, 0826ms total)
T1B34 016:610 JLINK_SetBPEx(Addr = 0x000005A6, Type = 0xFFFFFFF2)  returns 0x0000000A (0000ms, 0826ms total)
T1B34 016:610 JLINK_SetBPEx(Addr = 0x00000748, Type = 0xFFFFFFF2)  returns 0x0000000B (0000ms, 0826ms total)
T1B34 016:610 JLINK_SetBPEx(Addr = 0x00000740, Type = 0xFFFFFFF2)  returns 0x0000000C (0000ms, 0826ms total)
T1B34 016:610 JLINK_Go() -- CPU_WriteMem(4 bytes @ 0xE0002008) -- CPU_WriteMem(4 bytes @ 0xE000200C) -- CPU_WriteMem(4 bytes @ 0xE0002010) -- CPU_WriteMem(4 bytes @ 0xE0001004) (0008ms, 0834ms total)
T1B34 016:718 JLINK_IsHalted()  returns TRUE (0005ms, 0839ms total)
T1B34 016:723 JLINK_Halt()  returns 0x00 (0000ms, 0834ms total)
T1B34 016:723 JLINK_IsHalted()  returns TRUE (0000ms, 0834ms total)
T1B34 016:723 JLINK_IsHalted()  returns TRUE (0000ms, 0834ms total)
T1B34 016:723 JLINK_IsHalted()  returns TRUE (0000ms, 0834ms total)
T1B34 016:723 JLINK_ReadReg(R15 (PC))  returns 0x00002E8C (0000ms, 0834ms total)
T1B34 016:723 JLINK_ReadReg(XPSR)  returns 0x61000000 (0000ms, 0834ms total)
T1B34 016:723 JLINK_ClrBPEx(BPHandle = 0x00000009)  returns 0x00 (0000ms, 0834ms total)
T1B34 016:723 JLINK_ClrBPEx(BPHandle = 0x0000000A)  returns 0x00 (0000ms, 0834ms total)
T1B34 016:723 JLINK_ClrBPEx(BPHandle = 0x0000000B)  returns 0x00 (0000ms, 0834ms total)
T1B34 016:723 JLINK_ClrBPEx(BPHandle = 0x0000000C)  returns 0x00 (0000ms, 0834ms total)
T1B34 016:724 JLINK_ReadMemU32(0xE000ED30, 0x0001 Items, ...) -- CPU_ReadMem(4 bytes @ 0xE000ED30) -- Data:  03 00 00 00  returns 0x01 (0001ms, 0835ms total)
T1B34 016:725 JLINK_ReadMemU32(0xE0001028, 0x0001 Items, ...) -- CPU_ReadMem(4 bytes @ 0xE0001028) -- Data:  00 00 00 00  returns 0x01 (0002ms, 0837ms total)
T1B34 016:727 JLINK_ReadMemU32(0xE0001038, 0x0001 Items, ...) -- CPU_ReadMem(4 bytes @ 0xE0001038) -- Data:  00 02 00 00  returns 0x01 (0001ms, 0838ms total)
T1B34 016:728 JLINK_ReadMemU32(0xE0001048, 0x0001 Items, ...) -- CPU_ReadMem(4 bytes @ 0xE0001048) -- Data:  00 00 00 00  returns 0x01 (0001ms, 0839ms total)
T1B34 016:729 JLINK_ReadMemU32(0xE0001058, 0x0001 Items, ...) -- CPU_ReadMem(4 bytes @ 0xE0001058) -- Data:  00 00 00 00  returns 0x01 (0001ms, 0840ms total)
T1B34 016:730 JLINK_ReadReg(R0)  returns 0x0000003E (0000ms, 0840ms total)
T1B34 016:730 JLINK_ReadReg(R1)  returns 0x00000040 (0000ms, 0840ms total)
T1B34 016:730 JLINK_ReadReg(R2)  returns 0x0000003D (0000ms, 0840ms total)
T1B34 016:730 JLINK_ReadReg(R3)  returns 0x0003C03D (0000ms, 0840ms total)
T1B34 016:730 JLINK_ReadReg(R4)  returns 0x00000000 (0000ms, 0840ms total)
T1B34 016:730 JLINK_ReadReg(R5)  returns 0x00000003 (0001ms, 0841ms total)
T1B34 016:731 JLINK_ReadReg(R6)  returns 0x00000000 (0000ms, 0841ms total)
T1B34 016:731 JLINK_ReadReg(R7)  returns 0x00000000 (0000ms, 0841ms total)
T1B34 016:731 JLINK_ReadReg(R8)  returns 0x00000000 (0000ms, 0841ms total)
T1B34 016:731 JLINK_ReadReg(R9)  returns 0x00000000 (0000ms, 0841ms total)
T1B34 016:731 JLINK_ReadReg(R10)  returns 0x00012744 (0000ms, 0841ms total)
T1B34 016:731 JLINK_ReadReg(R11)  returns 0x00000000 (0000ms, 0841ms total)
T1B34 016:731 JLINK_ReadReg(R12)  returns 0x00000000 (0000ms, 0841ms total)
T1B34 016:731 JLINK_ReadReg(R13 (SP))  returns 0x200262D0 (0000ms, 0841ms total)
T1B34 016:731 JLINK_ReadReg(R14)  returns 0x0000B32B (0000ms, 0841ms total)
T1B34 016:731 JLINK_ReadReg(R15 (PC))  returns 0x00002E8C (0000ms, 0841ms total)
T1B34 016:731 JLINK_ReadReg(XPSR)  returns 0x61000000 (0000ms, 0841ms total)
T1B34 016:731 JLINK_ReadReg(MSP)  returns 0x200262D0 (0000ms, 0841ms total)
T1B34 016:731 JLINK_ReadReg(PSP)  returns 0x00000000 (0000ms, 0841ms total)
T1B34 016:731 JLINK_ReadReg(CFBP)  returns 0x04000001 (0000ms, 0841ms total)
T1B34 016:731 JLINK_ReadReg(FPSCR)  returns 0x03000000 (0010ms, 0851ms total)
T1B34 016:741 JLINK_ReadReg(FPS0)  returns 0x00000000 (0000ms, 0851ms total)
T1B34 016:741 JLINK_ReadReg(FPS1)  returns 0x00000000 (0000ms, 0851ms total)
T1B34 016:741 JLINK_ReadReg(FPS2)  returns 0x00000000 (0000ms, 0851ms total)
T1B34 016:741 JLINK_ReadReg(FPS3)  returns 0x00000000 (0000ms, 0851ms total)
T1B34 016:741 JLINK_ReadReg(FPS4)  returns 0x00000000 (0001ms, 0852ms total)
T1B34 016:742 JLINK_ReadReg(FPS5)  returns 0x00000000 (0000ms, 0852ms total)
T1B34 016:742 JLINK_ReadReg(FPS6)  returns 0x00000000 (0000ms, 0852ms total)
T1B34 016:742 JLINK_ReadReg(FPS7)  returns 0x00000000 (0000ms, 0852ms total)
T1B34 016:742 JLINK_ReadReg(FPS8)  returns 0x00000000 (0000ms, 0852ms total)
T1B34 016:742 JLINK_ReadReg(FPS9)  returns 0x00000000 (0000ms, 0852ms total)
T1B34 016:742 JLINK_ReadReg(FPS10)  returns 0x00000000 (0000ms, 0852ms total)
T1B34 016:742 JLINK_ReadReg(FPS11)  returns 0x00000000 (0000ms, 0852ms total)
T1B34 016:742 JLINK_ReadReg(FPS12)  returns 0x00000000 (0000ms, 0852ms total)
T1B34 016:742 JLINK_ReadReg(FPS13)  returns 0x00000000 (0000ms, 0852ms total)
T1B34 016:742 JLINK_ReadReg(FPS14)  returns 0x00000000 (0000ms, 0852ms total)
T1B34 016:742 JLINK_ReadReg(FPS15)  returns 0x00000000 (0000ms, 0852ms total)
T1B34 016:742 JLINK_ReadReg(FPS16)  returns 0x00000000 (0000ms, 0852ms total)
T1B34 016:742 JLINK_ReadReg(FPS17)  returns 0x00000000 (0000ms, 0852ms total)
T1B34 016:742 JLINK_ReadReg(FPS18)  returns 0x00000000 (0000ms, 0852ms total)
T1B34 016:742 JLINK_ReadReg(FPS19)  returns 0x00000000 (0000ms, 0852ms total)
T1B34 016:742 JLINK_ReadReg(FPS20)  returns 0x00000000 (0000ms, 0852ms total)
T1B34 016:742 JLINK_ReadReg(FPS31)  returns 0x00000000 (0000ms, 0852ms total)
T1B34 016:742 JLINK_ReadReg(FPS7)  returns 0x00000000 (0000ms, 0852ms total)
T1B34 016:742 JLINK_ReadReg(FPS8)  returns 0x00000000 (0000ms, 0852ms total)
T1B34 016:742 JLINK_ReadReg(FPS9)  returns 0x00000000 (0000ms, 0852ms total)
T1B34 016:742 JLINK_ReadReg(FPS10)  returns 0x00000000 (0000ms, 0852ms total)
T1B34 016:742 JLINK_ReadReg(FPS11)  returns 0x00000000 (0001ms, 0853ms total)
T1B34 016:743 JLINK_ReadReg(FPS12)  returns 0x00000000 (0000ms, 0853ms total)
T1B34 016:743 JLINK_ReadReg(FPS13)  returns 0x00000000 (0000ms, 0853ms total)
T1B34 016:743 JLINK_ReadReg(FPS14)  returns 0x00000000 (0000ms, 0853ms total)
T1B34 016:743 JLINK_ReadReg(FPS15)  returns 0x00000000 (0000ms, 0853ms total)
T1B34 016:743 JLINK_ReadReg(FPS16)  returns 0x00000000 (0000ms, 0853ms total)
